
T1F3C 000:284 SEGGER J-Link V4.96d Log File (0001ms, 0265ms total)
T1F3C 000:284 DLL Compiled: Jan 29 2015 11:45:37 (0001ms, 0265ms total)
T1F3C 000:284 Logging started @ 2016-11-02 19:54 (0001ms, 0265ms total)
T1F3C 000:285 JLINK_SetWarnOutHandler(...) (0000ms, 0265ms total)
T1F3C 000:285 JLINK_OpenEx(...)
Firmware: J-Link ARM-OB STM32 compiled Aug 22 2012 19:52:04
Hardware: V7.00
S/N: 20090928
Feature(s): RDI,FlashDL,FlashBP,JFlash,GDBFull  returns O.K. (0266ms, 0531ms total)
T1F3C 000:551 JLINK_SetErrorOutHandler(...) (0000ms, 0531ms total)
T1F3C 000:551 JLINK_ExecCommand("ProjectFile = "C:\Users\TF-PC\Desktop\EE&NE\EE-Project-CAR\Project\JLinkSettings.ini"", ...)  returns 0x00 (0000ms, 0531ms total)
T1F3C 000:552 JLINK_ExecCommand("Device = STM32F103C8", ...)Device "STM32F103C8" selected.  returns 0x00 (0002ms, 0534ms total)
T1F3C 000:555 JLINK_ExecCommand("DisableConnectionTimeout", ...)  returns 0x01 (0000ms, 0534ms total)
T1F3C 000:555 JLINK_GetHardwareVersion()  returns 0x11170 (0000ms, 0534ms total)
T1F3C 000:555 JLINK_GetDLLVersion()  returns 49604 (0000ms, 0534ms total)
T1F3C 000:555 JLINK_GetFirmwareString(...) (0000ms, 0534ms total)
T1F3C 000:569 JLINK_GetDLLVersion()  returns 49604 (0000ms, 0534ms total)
T1F3C 000:569 JLINK_GetCompileDateTime() (0000ms, 0534ms total)
T1F3C 000:572 JLINK_GetFirmwareString(...) (0000ms, 0534ms total)
T1F3C 000:575 JLINK_GetHardwareVersion()  returns 0x11170 (0000ms, 0534ms total)
T1F3C 000:584 JLINK_TIF_Select(JLINKARM_TIF_SWD)  returns 0x00 (0002ms, 0536ms total)
T1F3C 000:586 JLINK_SetSpeed(50000) (0000ms, 0536ms total)
T1F3C 000:586 JLINK_GetId() >0x108 TIF>Found SWD-DP with ID 0x1BA01477 >0x0D TIF> >0x28 TIF> >0x0D TIF> >0x28 TIF> >0x0D TIF> >0x21 TIF> >0x0D TIF> >0x28 TIF> >0x0D TIF> >0x28 TIF> >0x0D TIF> >0x28 TIF> >0x0D TIF> >0x21 TIF> >0x0D TIF> >0x21 TIF> >0x0D TIF> >0x28 TIF> >0x0D TIF> >0x21 TIF> >0x0D TIF> >0x21 TIF> >0x0D TIF> >0x28 TIF> >0x0D TIF> >0x28 TIF> >0x108 TIF>Found SWD-DP with ID 0x1BA01477 >0x0D TIF> >0x21 TIF> >0x0D TIF> >0x28 TIF> >0x0D TIF> >0x28 TIF> >0x0D TIF> >0x21 TIF> >0x0D TIF> >0x28 TIF>
 >0x0D TIF> >0x21 TIF> >0x0D TIF> >0x21 TIF> >0x0D TIF> >0x21 TIF> >0x0D TIF> >0x21 TIF> >0x0D TIF> >0x28 TIF> >0x0D TIF> >0x28 TIF> >0x0D TIF> >0x21 TIF> >0x0D TIF> >0x28 TIF> >0x0D TIF> >0x28 TIF> >0x0D TIF> >0x28 TIF> >0x0D TIF> >0x21 TIF> >0x0D TIF> >0x21 TIF> >0x0D TIF> >0x28 TIF> >0x0D TIF> >0x21 TIF> >0x0D TIF> >0x21 TIF>Found Cortex-M3 r1p1, Little endian. -- CPU_WriteMem(4 bytes @ 0xE0002000) -- CPU_ReadMem(4 bytes @ 0xE000EDF0) -- CPU_WriteMem(4 bytes @ 0xE000EDF0)
 -- CPU_ReadMem(4 bytes @ 0xE0002000)FPUnit: 6 code (BP) slots and 2 literal slots -- CPU_ReadMem(4 bytes @ 0xE000EDFC) -- CPU_WriteMem(4 bytes @ 0xE000EDFC) -- CPU_ReadMem(4 bytes @ 0xE0001000) -- CPU_WriteMem(4 bytes @ 0xE0001000) -- CPU_ReadMem(4 bytes @ 0xE000ED88) -- CPU_WriteMem(4 bytes @ 0xE000ED88) -- CPU_ReadMem(4 bytes @ 0xE000ED88) -- CPU_WriteMem(4 bytes @ 0xE000ED88) -- CPU_ReadMem(4 bytes @ 0xE00FF010)TPIU fitted. -- CPU_ReadMem(4 bytes @ 0xE00FF014) -- CPU_ReadMem(4 bytes @ 0xE00FF018)
 >0x0D TIF> >0x21 TIF>  returns 0x1BA01477 (0062ms, 0598ms total)
T1F3C 000:648 JLINK_GetDLLVersion()  returns 49604 (0000ms, 0598ms total)
T1F3C 000:648 JLINK_CORE_GetFound()  returns 0x30000FF (0000ms, 0598ms total)
T1F3C 000:648 JLINK_GetDebugInfo(0x100) -- Value=0xE00FF003  returns 0x00 (0000ms, 0598ms total)
T1F3C 000:650 JLINK_ReadMem (0xE00FF000, 0x0020 Bytes, ...) -- CPU is running -- CPU_ReadMem(32 bytes @ 0xE00FF000) - Data: 03 F0 F0 FF 03 20 F0 FF 03 30 F0 FF 03 10 F0 FF ...  returns 0x00 (0001ms, 0599ms total)
T1F3C 000:651 JLINK_ReadMem (0xE000EFF0, 0x0010 Bytes, ...) -- CPU is running -- CPU_ReadMem(16 bytes @ 0xE000EFF0) - Data: 0D 00 00 00 E0 00 00 00 05 00 00 00 B1 00 00 00  returns 0x00 (0001ms, 0600ms total)
T1F3C 000:652 JLINK_ReadMem (0xE000EFD0, 0x0020 Bytes, ...) -- CPU is running -- CPU_ReadMem(32 bytes @ 0xE000EFD0) - Data: 04 00 00 00 00 00 00 00 00 00 00 00 00 00 00 00 ...  returns 0x00 (0001ms, 0601ms total)
T1F3C 000:653 JLINK_ReadMem (0xE0001FF0, 0x0010 Bytes, ...) -- CPU is running -- CPU_ReadMem(16 bytes @ 0xE0001FF0) - Data: 0D 00 00 00 E0 00 00 00 05 00 00 00 B1 00 00 00  returns 0x00 (0001ms, 0602ms total)
T1F3C 000:654 JLINK_ReadMem (0xE0001FD0, 0x0020 Bytes, ...) -- CPU is running -- CPU_ReadMem(32 bytes @ 0xE0001FD0) - Data: 04 00 00 00 00 00 00 00 00 00 00 00 00 00 00 00 ...  returns 0x00 (0001ms, 0603ms total)
T1F3C 000:655 JLINK_ReadMem (0xE0002FF0, 0x0010 Bytes, ...) -- CPU is running -- CPU_ReadMem(16 bytes @ 0xE0002FF0) - Data: 0D 00 00 00 E0 00 00 00 05 00 00 00 B1 00 00 00  returns 0x00 (0001ms, 0604ms total)
T1F3C 000:656 JLINK_ReadMem (0xE0002FD0, 0x0020 Bytes, ...) -- CPU is running -- CPU_ReadMem(32 bytes @ 0xE0002FD0) - Data: 04 00 00 00 00 00 00 00 00 00 00 00 00 00 00 00 ...  returns 0x00 (0001ms, 0605ms total)
T1F3C 000:657 JLINK_ReadMem (0xE0000FF0, 0x0010 Bytes, ...) -- CPU is running -- CPU_ReadMem(16 bytes @ 0xE0000FF0) - Data: 0D 00 00 00 E0 00 00 00 05 00 00 00 B1 00 00 00  returns 0x00 (0001ms, 0606ms total)
T1F3C 000:658 JLINK_ReadMem (0xE0000FD0, 0x0020 Bytes, ...) -- CPU is running -- CPU_ReadMem(32 bytes @ 0xE0000FD0) - Data: 04 00 00 00 00 00 00 00 00 00 00 00 00 00 00 00 ...  returns 0x00 (0001ms, 0607ms total)
T1F3C 000:659 JLINK_ReadMem (0xE0040FF0, 0x0010 Bytes, ...) -- CPU is running -- CPU_ReadMem(16 bytes @ 0xE0040FF0) - Data: 0D 00 00 00 90 00 00 00 05 00 00 00 B1 00 00 00  returns 0x00 (0001ms, 0608ms total)
T1F3C 000:660 JLINK_ReadMem (0xE0040FD0, 0x0020 Bytes, ...) -- CPU is running -- CPU_ReadMem(32 bytes @ 0xE0040FD0) - Data: 04 00 00 00 00 00 00 00 00 00 00 00 00 00 00 00 ...  returns 0x00 (0001ms, 0609ms total)
T1F3C 000:661 JLINK_ReadMemU32(0xE000ED00, 0x0001 Items, ...) -- CPU is running -- CPU_ReadMem(4 bytes @ 0xE000ED00) - Data: 31 C2 1F 41  returns 0x01 (0001ms, 0610ms total)
T1F3C 000:662 JLINK_SetResetType(JLINKARM_RESET_TYPE_NORMAL)  returns JLINKARM_RESET_TYPE_NORMAL (0000ms, 0610ms total)
T1F3C 000:662 JLINK_Reset() -- CPU is running -- CPU_WriteMem(4 bytes @ 0xE000EDF0) -- CPU is running -- CPU_WriteMem(4 bytes @ 0xE000EDFC) >0x35 TIF> -- CPU is running -- CPU_WriteMem(4 bytes @ 0xE000ED0C) -- CPU is running -- CPU_ReadMem(4 bytes @ 0xE000EDF0) -- CPU is running -- CPU_ReadMem(4 bytes @ 0xE000EDF0) -- CPU is running -- CPU_WriteMem(4 bytes @ 0xE000EDF0) -- CPU is running -- CPU_WriteMem(4 bytes @ 0xE000EDFC) -- CPU is running -- CPU_ReadMem(4 bytes @ 0xE000EDF0)
 -- CPU_WriteMem(4 bytes @ 0xE0002000) -- CPU_ReadMem(4 bytes @ 0xE000EDFC) -- CPU_ReadMem(4 bytes @ 0xE0001000) (0022ms, 0632ms total)
T1F3C 000:684 JLINK_Halt()  returns 0x00 (0000ms, 0632ms total)
T1F3C 000:684 JLINK_IsHalted()  returns TRUE (0000ms, 0632ms total)
T1F3C 000:684 JLINK_ReadMemU32(0xE000EDF0, 0x0001 Items, ...) -- CPU_ReadMem(4 bytes @ 0xE000EDF0) - Data: 03 00 03 00  returns 0x01 (0001ms, 0633ms total)
T1F3C 000:685 JLINK_WriteU32(0xE000EDF0, 0xA05F0003) -- CPU_WriteMem(4 bytes @ 0xE000EDF0)  returns 0x00 (0001ms, 0634ms total)
T1F3C 000:686 JLINK_WriteU32(0xE000EDFC, 0x01000000) -- CPU_WriteMem(4 bytes @ 0xE000EDFC)  returns 0x00 (0000ms, 0634ms total)
T1F3C 000:696 JLINK_GetHWStatus(...)  returns 0x00 (0000ms, 0634ms total)
T1F3C 000:704 JLINK_GetNumBPUnits(Type = 0xFFFFFF00)  returns 0x06 (0000ms, 0634ms total)
T1F3C 000:704 JLINK_GetNumBPUnits(Type = 0xF0)  returns 0x2000 (0000ms, 0634ms total)
T1F3C 000:704 JLINK_GetNumWPUnits()  returns 0x04 (0000ms, 0634ms total)
T1F3C 000:709 JLINK_GetSpeed()  returns 0xFA0 (0000ms, 0634ms total)
T1F3C 000:714 JLINK_ReadMemU32(0xE000E004, 0x0001 Items, ...) -- CPU_ReadMem(4 bytes @ 0xE000E004) - Data: 01 00 00 00  returns 0x01 (0001ms, 0635ms total)
T1F3C 000:715 JLINK_ReadMemU32(0xE000E004, 0x0001 Items, ...) -- CPU_ReadMem(4 bytes @ 0xE000E004) - Data: 01 00 00 00  returns 0x01 (0001ms, 0636ms total)
T1F3C 000:716 JLINK_WriteMem(0xE0001000, 0x001C Bytes, ...) - Data: 01 00 00 00 00 00 00 00 00 00 00 00 00 00 00 00 ... -- CPU_WriteMem(28 bytes @ 0xE0001000)  returns 0x1C (0001ms, 0637ms total)
T1F3C 000:717 JLINK_ReadMem (0xE0001000, 0x001C Bytes, ...) -- CPU_ReadMem(28 bytes @ 0xE0001000) - Data: 01 00 00 40 00 00 00 00 00 00 00 00 00 00 00 00 ...  returns 0x00 (0001ms, 0638ms total)
T1F3C 000:718 JLINK_Halt()  returns 0x00 (0000ms, 0638ms total)
T1F3C 000:718 JLINK_IsHalted()  returns TRUE (0000ms, 0638ms total)
T1F3C 000:719 JLINK_WriteMem(0x20000000, 0x0164 Bytes, ...) - Data: 00 BE 0A E0 0D 78 2D 06 68 40 08 24 40 00 00 D3 ... -- CPU_WriteMem(356 bytes @ 0x20000000)  returns 0x164 (0005ms, 0643ms total)
T1F3C 000:724 JLINK_WriteReg(R0, 0x08000000)  returns 0x00 (0000ms, 0643ms total)
T1F3C 000:724 JLINK_WriteReg(R1, 0x007A1200)  returns 0x00 (0000ms, 0643ms total)
T1F3C 000:724 JLINK_WriteReg(R2, 0x00000001)  returns 0x00 (0000ms, 0643ms total)
T1F3C 000:724 JLINK_WriteReg(R3, 0x00000000)  returns 0x00 (0000ms, 0643ms total)
T1F3C 000:724 JLINK_WriteReg(R4, 0x00000000)  returns 0x00 (0000ms, 0643ms total)
T1F3C 000:724 JLINK_WriteReg(R5, 0x00000000)  returns 0x00 (0000ms, 0643ms total)
T1F3C 000:724 JLINK_WriteReg(R6, 0x00000000)  returns 0x00 (0000ms, 0643ms total)
T1F3C 000:724 JLINK_WriteReg(R7, 0x00000000)  returns 0x00 (0000ms, 0643ms total)
T1F3C 000:724 JLINK_WriteReg(R8, 0x00000000)  returns 0x00 (0000ms, 0643ms total)
T1F3C 000:724 JLINK_WriteReg(R9, 0x20000160)  returns 0x00 (0000ms, 0643ms total)
T1F3C 000:724 JLINK_WriteReg(R10, 0x00000000)  returns 0x00 (0000ms, 0643ms total)
T1F3C 000:724 JLINK_WriteReg(R11, 0x00000000)  returns 0x00 (0000ms, 0643ms total)
T1F3C 000:724 JLINK_WriteReg(R12, 0x00000000)  returns 0x00 (0000ms, 0643ms total)
T1F3C 000:724 JLINK_WriteReg(R13 (SP), 0x20000800)  returns 0x00 (0000ms, 0643ms total)
T1F3C 000:724 JLINK_WriteReg(R14, 0x20000001)  returns 0x00 (0000ms, 0643ms total)
T1F3C 000:724 JLINK_WriteReg(R15 (PC), 0x20000038)  returns 0x00 (0000ms, 0643ms total)
T1F3C 000:724 JLINK_WriteReg(XPSR, 0x01000000)  returns 0x00 (0000ms, 0643ms total)
T1F3C 000:724 JLINK_WriteReg(MSP, 0x20000800)  returns 0x00 (0000ms, 0643ms total)
T1F3C 000:724 JLINK_WriteReg(PSP, 0x20000800)  returns 0x00 (0000ms, 0643ms total)
T1F3C 000:724 JLINK_WriteReg(CFBP, 0x00000000)  returns 0x00 (0000ms, 0643ms total)
T1F3C 000:724 JLINK_SetBPEx(Addr = 0x20000000, Type = 0xFFFFFFF2) -- CPU_ReadMem(2 bytes @ 0x20000000)  returns 0x00000001 (0002ms, 0645ms total)
T1F3C 000:726 JLINK_Go() -- CPU_WriteMem(2 bytes @ 0x20000000) -- CPU_WriteMem(4 bytes @ 0xE0002008) -- CPU_WriteMem(4 bytes @ 0xE000200C) -- CPU_WriteMem(4 bytes @ 0xE0002010) -- CPU_WriteMem(4 bytes @ 0xE0002014) -- CPU_WriteMem(4 bytes @ 0xE0002018) -- CPU_WriteMem(4 bytes @ 0xE000201C) -- CPU_WriteMem(4 bytes @ 0xE0001004) (0008ms, 0653ms total)
T1F3C 000:734 JLINK_IsHalted() -- CPU_ReadMem(2 bytes @ 0x20000000)  returns TRUE (0004ms, 0657ms total)
T1F3C 000:738 JLINK_ReadReg(R15 (PC))  returns 0x20000000 (0000ms, 0653ms total)
T1F3C 000:738 JLINK_ClrBPEx(BPHandle = 0x00000001)  returns 0x00 (0000ms, 0653ms total)
T1F3C 000:738 JLINK_ReadReg(R0)  returns 0x00000000 (0000ms, 0653ms total)
T1F3C 000:738 JLINK_WriteReg(R0, 0x08000000)  returns 0x00 (0000ms, 0653ms total)
T1F3C 000:738 JLINK_WriteReg(R1, 0x007A1200)  returns 0x00 (0000ms, 0653ms total)
T1F3C 000:738 JLINK_WriteReg(R2, 0x00000001)  returns 0x00 (0000ms, 0653ms total)
T1F3C 000:738 JLINK_WriteReg(R3, 0x00000000)  returns 0x00 (0000ms, 0653ms total)
T1F3C 000:738 JLINK_WriteReg(R4, 0x00000000)  returns 0x00 (0000ms, 0653ms total)
T1F3C 000:738 JLINK_WriteReg(R5, 0x00000000)  returns 0x00 (0000ms, 0653ms total)
T1F3C 000:738 JLINK_WriteReg(R6, 0x00000000)  returns 0x00 (0000ms, 0653ms total)
T1F3C 000:738 JLINK_WriteReg(R7, 0x00000000)  returns 0x00 (0000ms, 0653ms total)
T1F3C 000:738 JLINK_WriteReg(R8, 0x00000000)  returns 0x00 (0000ms, 0653ms total)
T1F3C 000:738 JLINK_WriteReg(R9, 0x20000160)  returns 0x00 (0000ms, 0653ms total)
T1F3C 000:738 JLINK_WriteReg(R10, 0x00000000)  returns 0x00 (0000ms, 0653ms total)
T1F3C 000:738 JLINK_WriteReg(R11, 0x00000000)  returns 0x00 (0001ms, 0654ms total)
T1F3C 000:739 JLINK_WriteReg(R12, 0x00000000)  returns 0x00 (0000ms, 0654ms total)
T1F3C 000:739 JLINK_WriteReg(R13 (SP), 0x20000800)  returns 0x00 (0000ms, 0654ms total)
T1F3C 000:739 JLINK_WriteReg(R14, 0x20000001)  returns 0x00 (0000ms, 0654ms total)
T1F3C 000:739 JLINK_WriteReg(R15 (PC), 0x2000007C)  returns 0x00 (0000ms, 0654ms total)
T1F3C 000:739 JLINK_WriteReg(XPSR, 0x01000000)  returns 0x00 (0000ms, 0654ms total)
T1F3C 000:739 JLINK_WriteReg(MSP, 0x20000800)  returns 0x00 (0000ms, 0654ms total)
T1F3C 000:739 JLINK_WriteReg(PSP, 0x20000800)  returns 0x00 (0000ms, 0654ms total)
T1F3C 000:739 JLINK_WriteReg(CFBP, 0x00000000)  returns 0x00 (0000ms, 0654ms total)
T1F3C 000:739 JLINK_SetBPEx(Addr = 0x20000000, Type = 0xFFFFFFF2)  returns 0x00000002 (0000ms, 0654ms total)
T1F3C 000:739 JLINK_Go() (0002ms, 0656ms total)
T1F3C 000:741 JLINK_IsHalted()  returns FALSE (0000ms, 0656ms total)
T1F3C 000:807 JLINK_IsHalted() -- CPU_ReadMem(2 bytes @ 0x20000000)  returns TRUE (0005ms, 0661ms total)
T1F3C 000:812 JLINK_ReadReg(R15 (PC))  returns 0x20000000 (0000ms, 0656ms total)
T1F3C 000:812 JLINK_ClrBPEx(BPHandle = 0x00000002)  returns 0x00 (0000ms, 0656ms total)
T1F3C 000:812 JLINK_ReadReg(R0)  returns 0x00000000 (0000ms, 0656ms total)
T1F3C 000:862 JLINK_WriteReg(R0, 0x00000001)  returns 0x00 (0000ms, 0656ms total)
T1F3C 000:862 JLINK_WriteReg(R1, 0x007A1200)  returns 0x00 (0000ms, 0656ms total)
T1F3C 000:862 JLINK_WriteReg(R2, 0x00000001)  returns 0x00 (0000ms, 0656ms total)
T1F3C 000:862 JLINK_WriteReg(R3, 0x00000000)  returns 0x00 (0000ms, 0656ms total)
T1F3C 000:862 JLINK_WriteReg(R4, 0x00000000)  returns 0x00 (0000ms, 0656ms total)
T1F3C 000:862 JLINK_WriteReg(R5, 0x00000000)  returns 0x00 (0000ms, 0656ms total)
T1F3C 000:862 JLINK_WriteReg(R6, 0x00000000)  returns 0x00 (0000ms, 0656ms total)
T1F3C 000:862 JLINK_WriteReg(R7, 0x00000000)  returns 0x00 (0000ms, 0656ms total)
T1F3C 000:862 JLINK_WriteReg(R8, 0x00000000)  returns 0x00 (0001ms, 0657ms total)
T1F3C 000:863 JLINK_WriteReg(R9, 0x20000160)  returns 0x00 (0000ms, 0657ms total)
T1F3C 000:863 JLINK_WriteReg(R10, 0x00000000)  returns 0x00 (0000ms, 0657ms total)
T1F3C 000:863 JLINK_WriteReg(R11, 0x00000000)  returns 0x00 (0000ms, 0657ms total)
T1F3C 000:863 JLINK_WriteReg(R12, 0x00000000)  returns 0x00 (0000ms, 0657ms total)
T1F3C 000:863 JLINK_WriteReg(R13 (SP), 0x20000800)  returns 0x00 (0000ms, 0657ms total)
T1F3C 000:863 JLINK_WriteReg(R14, 0x20000001)  returns 0x00 (0000ms, 0657ms total)
T1F3C 000:863 JLINK_WriteReg(R15 (PC), 0x2000006A)  returns 0x00 (0000ms, 0657ms total)
T1F3C 000:863 JLINK_WriteReg(XPSR, 0x01000000)  returns 0x00 (0000ms, 0657ms total)
T1F3C 000:863 JLINK_WriteReg(MSP, 0x20000800)  returns 0x00 (0000ms, 0657ms total)
T1F3C 000:863 JLINK_WriteReg(PSP, 0x20000800)  returns 0x00 (0000ms, 0657ms total)
T1F3C 000:863 JLINK_WriteReg(CFBP, 0x00000000)  returns 0x00 (0000ms, 0657ms total)
T1F3C 000:863 JLINK_SetBPEx(Addr = 0x20000000, Type = 0xFFFFFFF2)  returns 0x00000003 (0000ms, 0657ms total)
T1F3C 000:863 JLINK_Go() (0002ms, 0659ms total)
T1F3C 000:865 JLINK_IsHalted() -- CPU_ReadMem(2 bytes @ 0x20000000)  returns TRUE (0006ms, 0665ms total)
T1F3C 000:871 JLINK_ReadReg(R15 (PC))  returns 0x20000000 (0000ms, 0659ms total)
T1F3C 000:871 JLINK_ClrBPEx(BPHandle = 0x00000003)  returns 0x00 (0000ms, 0659ms total)
T1F3C 000:871 JLINK_ReadReg(R0)  returns 0x00000000 (0000ms, 0659ms total)
T1F3C 000:882 JLINK_WriteMem(0x20000000, 0x0164 Bytes, ...) - Data: 00 BE 0A E0 0D 78 2D 06 68 40 08 24 40 00 00 D3 ... -- CPU_WriteMem(356 bytes @ 0x20000000)  returns 0x164 (0005ms, 0664ms total)
T1F3C 000:888 JLINK_WriteReg(R0, 0x08000000)  returns 0x00 (0000ms, 0665ms total)
T1F3C 000:888 JLINK_WriteReg(R1, 0x007A1200)  returns 0x00 (0000ms, 0665ms total)
T1F3C 000:888 JLINK_WriteReg(R2, 0x00000002)  returns 0x00 (0000ms, 0665ms total)
T1F3C 000:888 JLINK_WriteReg(R3, 0x00000000)  returns 0x00 (0000ms, 0665ms total)
T1F3C 000:888 JLINK_WriteReg(R4, 0x00000000)  returns 0x00 (0000ms, 0665ms total)
T1F3C 000:888 JLINK_WriteReg(R5, 0x00000000)  returns 0x00 (0000ms, 0665ms total)
T1F3C 000:888 JLINK_WriteReg(R6, 0x00000000)  returns 0x00 (0000ms, 0665ms total)
T1F3C 000:888 JLINK_WriteReg(R7, 0x00000000)  returns 0x00 (0000ms, 0665ms total)
T1F3C 000:888 JLINK_WriteReg(R8, 0x00000000)  returns 0x00 (0000ms, 0665ms total)
T1F3C 000:888 JLINK_WriteReg(R9, 0x20000160)  returns 0x00 (0000ms, 0665ms total)
T1F3C 000:888 JLINK_WriteReg(R10, 0x00000000)  returns 0x00 (0000ms, 0665ms total)
T1F3C 000:888 JLINK_WriteReg(R11, 0x00000000)  returns 0x00 (0000ms, 0665ms total)
T1F3C 000:888 JLINK_WriteReg(R12, 0x00000000)  returns 0x00 (0000ms, 0665ms total)
T1F3C 000:888 JLINK_WriteReg(R13 (SP), 0x20000800)  returns 0x00 (0000ms, 0665ms total)
T1F3C 000:888 JLINK_WriteReg(R14, 0x20000001)  returns 0x00 (0000ms, 0665ms total)
T1F3C 000:888 JLINK_WriteReg(R15 (PC), 0x20000038)  returns 0x00 (0000ms, 0665ms total)
T1F3C 000:888 JLINK_WriteReg(XPSR, 0x01000000)  returns 0x00 (0000ms, 0665ms total)
T1F3C 000:888 JLINK_WriteReg(MSP, 0x20000800)  returns 0x00 (0000ms, 0665ms total)
T1F3C 000:888 JLINK_WriteReg(PSP, 0x20000800)  returns 0x00 (0000ms, 0665ms total)
T1F3C 000:888 JLINK_WriteReg(CFBP, 0x00000000)  returns 0x00 (0000ms, 0665ms total)
T1F3C 000:888 JLINK_SetBPEx(Addr = 0x20000000, Type = 0xFFFFFFF2) -- CPU_ReadMem(2 bytes @ 0x20000000)  returns 0x00000004 (0001ms, 0666ms total)
T1F3C 000:889 JLINK_Go() -- CPU_WriteMem(2 bytes @ 0x20000000) (0004ms, 0670ms total)
T1F3C 000:893 JLINK_IsHalted() -- CPU_ReadMem(2 bytes @ 0x20000000)  returns TRUE (0005ms, 0675ms total)
T1F3C 000:898 JLINK_ReadReg(R15 (PC))  returns 0x20000000 (0000ms, 0670ms total)
T1F3C 000:898 JLINK_ClrBPEx(BPHandle = 0x00000004)  returns 0x00 (0000ms, 0670ms total)
T1F3C 000:898 JLINK_ReadReg(R0)  returns 0x00000000 (0000ms, 0670ms total)
T1F3C 000:898 JLINK_WriteMem(0x20000164, 0x0400 Bytes, ...) - Data: 80 0D 00 20 25 30 00 08 81 09 00 08 83 09 00 08 ... -- CPU_WriteMem(1024 bytes @ 0x20000164)  returns 0x400 (0013ms, 0683ms total)
T1F3C 000:911 JLINK_WriteReg(R0, 0x08000000)  returns 0x00 (0000ms, 0683ms total)
T1F3C 000:911 JLINK_WriteReg(R1, 0x00000400)  returns 0x00 (0000ms, 0683ms total)
T1F3C 000:911 JLINK_WriteReg(R2, 0x20000164)  returns 0x00 (0000ms, 0683ms total)
T1F3C 000:911 JLINK_WriteReg(R3, 0x00000000)  returns 0x00 (0000ms, 0683ms total)
T1F3C 000:911 JLINK_WriteReg(R4, 0x00000000)  returns 0x00 (0000ms, 0683ms total)
T1F3C 000:911 JLINK_WriteReg(R5, 0x00000000)  returns 0x00 (0000ms, 0683ms total)
T1F3C 000:911 JLINK_WriteReg(R6, 0x00000000)  returns 0x00 (0000ms, 0683ms total)
T1F3C 000:911 JLINK_WriteReg(R7, 0x00000000)  returns 0x00 (0000ms, 0683ms total)
T1F3C 000:911 JLINK_WriteReg(R8, 0x00000000)  returns 0x00 (0000ms, 0683ms total)
T1F3C 000:911 JLINK_WriteReg(R9, 0x20000160)  returns 0x00 (0000ms, 0683ms total)
T1F3C 000:911 JLINK_WriteReg(R10, 0x00000000)  returns 0x00 (0000ms, 0683ms total)
T1F3C 000:911 JLINK_WriteReg(R11, 0x00000000)  returns 0x00 (0000ms, 0683ms total)
T1F3C 000:911 JLINK_WriteReg(R12, 0x00000000)  returns 0x00 (0000ms, 0683ms total)
T1F3C 000:911 JLINK_WriteReg(R13 (SP), 0x20000800)  returns 0x00 (0000ms, 0683ms total)
T1F3C 000:912 JLINK_WriteReg(R14, 0x20000001)  returns 0x00 (0000ms, 0684ms total)
T1F3C 000:912 JLINK_WriteReg(R15 (PC), 0x200000F4)  returns 0x00 (0000ms, 0684ms total)
T1F3C 000:912 JLINK_WriteReg(XPSR, 0x01000000)  returns 0x00 (0000ms, 0684ms total)
T1F3C 000:912 JLINK_WriteReg(MSP, 0x20000800)  returns 0x00 (0000ms, 0684ms total)
T1F3C 000:912 JLINK_WriteReg(PSP, 0x20000800)  returns 0x00 (0000ms, 0684ms total)
T1F3C 000:912 JLINK_WriteReg(CFBP, 0x00000000)  returns 0x00 (0000ms, 0684ms total)
T1F3C 000:912 JLINK_SetBPEx(Addr = 0x20000000, Type = 0xFFFFFFF2)  returns 0x00000005 (0000ms, 0684ms total)
T1F3C 000:912 JLINK_Go() (0002ms, 0686ms total)
T1F3C 000:914 JLINK_IsHalted()  returns FALSE (0001ms, 0687ms total)
T1F3C 000:969 JLINK_IsHalted() -- CPU_ReadMem(2 bytes @ 0x20000000)  returns TRUE (0005ms, 0691ms total)
T1F3C 000:974 JLINK_ReadReg(R15 (PC))  returns 0x20000000 (0000ms, 0686ms total)
T1F3C 000:974 JLINK_ClrBPEx(BPHandle = 0x00000005)  returns 0x00 (0000ms, 0686ms total)
T1F3C 000:974 JLINK_ReadReg(R0)  returns 0x00000000 (0000ms, 0686ms total)
T1F3C 000:974 JLINK_WriteMem(0x20000164, 0x0400 Bytes, ...) - Data: 00 68 06 F0 3B F8 05 46 2A 46 0B 46 33 A1 68 46 ... -- CPU_WriteMem(1024 bytes @ 0x20000164)  returns 0x400 (0013ms, 0699ms total)
T1F3C 000:987 JLINK_WriteReg(R0, 0x08000400)  returns 0x00 (0000ms, 0699ms total)
T1F3C 000:987 JLINK_WriteReg(R1, 0x00000400)  returns 0x00 (0000ms, 0699ms total)
T1F3C 000:987 JLINK_WriteReg(R2, 0x20000164)  returns 0x00 (0000ms, 0699ms total)
T1F3C 000:987 JLINK_WriteReg(R3, 0x00000000)  returns 0x00 (0000ms, 0699ms total)
T1F3C 000:987 JLINK_WriteReg(R4, 0x00000000)  returns 0x00 (0000ms, 0699ms total)
T1F3C 000:987 JLINK_WriteReg(R5, 0x00000000)  returns 0x00 (0000ms, 0699ms total)
T1F3C 000:987 JLINK_WriteReg(R6, 0x00000000)  returns 0x00 (0000ms, 0699ms total)
T1F3C 000:987 JLINK_WriteReg(R7, 0x00000000)  returns 0x00 (0000ms, 0699ms total)
T1F3C 000:987 JLINK_WriteReg(R8, 0x00000000)  returns 0x00 (0000ms, 0699ms total)
T1F3C 000:987 JLINK_WriteReg(R9, 0x20000160)  returns 0x00 (0000ms, 0699ms total)
T1F3C 000:987 JLINK_WriteReg(R10, 0x00000000)  returns 0x00 (0000ms, 0699ms total)
T1F3C 000:987 JLINK_WriteReg(R11, 0x00000000)  returns 0x00 (0000ms, 0699ms total)
T1F3C 000:987 JLINK_WriteReg(R12, 0x00000000)  returns 0x00 (0000ms, 0699ms total)
T1F3C 000:987 JLINK_WriteReg(R13 (SP), 0x20000800)  returns 0x00 (0000ms, 0699ms total)
T1F3C 000:987 JLINK_WriteReg(R14, 0x20000001)  returns 0x00 (0000ms, 0699ms total)
T1F3C 000:987 JLINK_WriteReg(R15 (PC), 0x200000F4)  returns 0x00 (0000ms, 0699ms total)
T1F3C 000:987 JLINK_WriteReg(XPSR, 0x01000000)  returns 0x00 (0000ms, 0699ms total)
T1F3C 000:987 JLINK_WriteReg(MSP, 0x20000800)  returns 0x00 (0000ms, 0699ms total)
T1F3C 000:987 JLINK_WriteReg(PSP, 0x20000800)  returns 0x00 (0000ms, 0699ms total)
T1F3C 000:987 JLINK_WriteReg(CFBP, 0x00000000)  returns 0x00 (0000ms, 0699ms total)
T1F3C 000:987 JLINK_SetBPEx(Addr = 0x20000000, Type = 0xFFFFFFF2)  returns 0x00000006 (0000ms, 0699ms total)
T1F3C 000:987 JLINK_Go() (0002ms, 0701ms total)
T1F3C 000:989 JLINK_IsHalted()  returns FALSE (0001ms, 0702ms total)
T1F3C 000:999 JLINK_IsHalted()  returns FALSE (0001ms, 0702ms total)
T1F3C 001:002 JLINK_IsHalted()  returns FALSE (0000ms, 0701ms total)
T1F3C 001:007 JLINK_IsHalted()  returns FALSE (0000ms, 0701ms total)
T1F3C 001:009 JLINK_IsHalted()  returns FALSE (0000ms, 0701ms total)
T1F3C 001:011 JLINK_IsHalted()  returns FALSE (0000ms, 0701ms total)
T1F3C 001:013 JLINK_IsHalted()  returns FALSE (0001ms, 0702ms total)
T1F3C 001:015 JLINK_IsHalted()  returns FALSE (0000ms, 0701ms total)
T1F3C 001:023 JLINK_IsHalted() -- CPU_ReadMem(2 bytes @ 0x20000000)  returns TRUE (0004ms, 0705ms total)
T1F3C 001:027 JLINK_ReadReg(R15 (PC))  returns 0x20000000 (0000ms, 0701ms total)
T1F3C 001:027 JLINK_ClrBPEx(BPHandle = 0x00000006)  returns 0x00 (0000ms, 0701ms total)
T1F3C 001:027 JLINK_ReadReg(R0)  returns 0x00000000 (0000ms, 0701ms total)
T1F3C 001:027 JLINK_WriteMem(0x20000164, 0x0400 Bytes, ...) - Data: AD F8 08 00 AD F8 0A 00 AD F8 0C 00 AD F8 10 00 ... -- CPU_WriteMem(1024 bytes @ 0x20000164)  returns 0x400 (0013ms, 0714ms total)
T1F3C 001:040 JLINK_WriteReg(R0, 0x08000800)  returns 0x00 (0000ms, 0714ms total)
T1F3C 001:040 JLINK_WriteReg(R1, 0x00000400)  returns 0x00 (0000ms, 0714ms total)
T1F3C 001:040 JLINK_WriteReg(R2, 0x20000164)  returns 0x00 (0000ms, 0714ms total)
T1F3C 001:040 JLINK_WriteReg(R3, 0x00000000)  returns 0x00 (0000ms, 0714ms total)
T1F3C 001:040 JLINK_WriteReg(R4, 0x00000000)  returns 0x00 (0000ms, 0714ms total)
T1F3C 001:040 JLINK_WriteReg(R5, 0x00000000)  returns 0x00 (0000ms, 0714ms total)
T1F3C 001:040 JLINK_WriteReg(R6, 0x00000000)  returns 0x00 (0000ms, 0714ms total)
T1F3C 001:040 JLINK_WriteReg(R7, 0x00000000)  returns 0x00 (0000ms, 0714ms total)
T1F3C 001:040 JLINK_WriteReg(R8, 0x00000000)  returns 0x00 (0000ms, 0714ms total)
T1F3C 001:040 JLINK_WriteReg(R9, 0x20000160)  returns 0x00 (0000ms, 0714ms total)
T1F3C 001:040 JLINK_WriteReg(R10, 0x00000000)  returns 0x00 (0000ms, 0714ms total)
T1F3C 001:040 JLINK_WriteReg(R11, 0x00000000)  returns 0x00 (0000ms, 0714ms total)
T1F3C 001:040 JLINK_WriteReg(R12, 0x00000000)  returns 0x00 (0000ms, 0714ms total)
T1F3C 001:040 JLINK_WriteReg(R13 (SP), 0x20000800)  returns 0x00 (0000ms, 0714ms total)
T1F3C 001:040 JLINK_WriteReg(R14, 0x20000001)  returns 0x00 (0000ms, 0714ms total)
T1F3C 001:040 JLINK_WriteReg(R15 (PC), 0x200000F4)  returns 0x00 (0000ms, 0714ms total)
T1F3C 001:040 JLINK_WriteReg(XPSR, 0x01000000)  returns 0x00 (0000ms, 0714ms total)
T1F3C 001:040 JLINK_WriteReg(MSP, 0x20000800)  returns 0x00 (0000ms, 0714ms total)
T1F3C 001:040 JLINK_WriteReg(PSP, 0x20000800)  returns 0x00 (0000ms, 0714ms total)
T1F3C 001:040 JLINK_WriteReg(CFBP, 0x00000000)  returns 0x00 (0000ms, 0714ms total)
T1F3C 001:040 JLINK_SetBPEx(Addr = 0x20000000, Type = 0xFFFFFFF2)  returns 0x00000007 (0000ms, 0714ms total)
T1F3C 001:040 JLINK_Go() (0003ms, 0717ms total)
T1F3C 001:043 JLINK_IsHalted()  returns FALSE (0000ms, 0717ms total)
T1F3C 001:047 JLINK_IsHalted()  returns FALSE (0001ms, 0718ms total)
T1F3C 001:049 JLINK_IsHalted()  returns FALSE (0001ms, 0718ms total)
T1F3C 001:057 JLINK_IsHalted()  returns FALSE (0000ms, 0717ms total)
T1F3C 001:059 JLINK_IsHalted()  returns FALSE (0000ms, 0717ms total)
T1F3C 001:061 JLINK_IsHalted()  returns FALSE (0000ms, 0717ms total)
T1F3C 001:063 JLINK_IsHalted()  returns FALSE (0001ms, 0718ms total)
T1F3C 001:068 JLINK_IsHalted()  returns FALSE (0000ms, 0717ms total)
T1F3C 001:070 JLINK_IsHalted()  returns FALSE (0000ms, 0717ms total)
T1F3C 001:072 JLINK_IsHalted()  returns FALSE (0001ms, 0718ms total)
T1F3C 001:074 JLINK_IsHalted() -- CPU_ReadMem(2 bytes @ 0x20000000)  returns TRUE (0004ms, 0721ms total)
T1F3C 001:078 JLINK_ReadReg(R15 (PC))  returns 0x20000000 (0000ms, 0717ms total)
T1F3C 001:078 JLINK_ClrBPEx(BPHandle = 0x00000007)  returns 0x00 (0000ms, 0717ms total)
T1F3C 001:078 JLINK_ReadReg(R0)  returns 0x00000000 (0000ms, 0717ms total)
T1F3C 001:078 JLINK_WriteMem(0x20000164, 0x0400 Bytes, ...) - Data: 12 4C 23 60 03 E0 10 4B 43 43 10 4C 23 60 03 E0 ... -- CPU_WriteMem(1024 bytes @ 0x20000164)  returns 0x400 (0013ms, 0730ms total)
T1F3C 001:091 JLINK_WriteReg(R0, 0x08000C00)  returns 0x00 (0000ms, 0730ms total)
T1F3C 001:091 JLINK_WriteReg(R1, 0x00000400)  returns 0x00 (0000ms, 0730ms total)
T1F3C 001:091 JLINK_WriteReg(R2, 0x20000164)  returns 0x00 (0000ms, 0730ms total)
T1F3C 001:091 JLINK_WriteReg(R3, 0x00000000)  returns 0x00 (0000ms, 0730ms total)
T1F3C 001:091 JLINK_WriteReg(R4, 0x00000000)  returns 0x00 (0000ms, 0730ms total)
T1F3C 001:091 JLINK_WriteReg(R5, 0x00000000)  returns 0x00 (0000ms, 0730ms total)
T1F3C 001:091 JLINK_WriteReg(R6, 0x00000000)  returns 0x00 (0000ms, 0730ms total)
T1F3C 001:091 JLINK_WriteReg(R7, 0x00000000)  returns 0x00 (0000ms, 0730ms total)
T1F3C 001:091 JLINK_WriteReg(R8, 0x00000000)  returns 0x00 (0000ms, 0730ms total)
T1F3C 001:091 JLINK_WriteReg(R9, 0x20000160)  returns 0x00 (0000ms, 0730ms total)
T1F3C 001:091 JLINK_WriteReg(R10, 0x00000000)  returns 0x00 (0000ms, 0730ms total)
T1F3C 001:091 JLINK_WriteReg(R11, 0x00000000)  returns 0x00 (0000ms, 0730ms total)
T1F3C 001:091 JLINK_WriteReg(R12, 0x00000000)  returns 0x00 (0000ms, 0730ms total)
T1F3C 001:091 JLINK_WriteReg(R13 (SP), 0x20000800)  returns 0x00 (0000ms, 0730ms total)
T1F3C 001:091 JLINK_WriteReg(R14, 0x20000001)  returns 0x00 (0000ms, 0730ms total)
T1F3C 001:091 JLINK_WriteReg(R15 (PC), 0x200000F4)  returns 0x00 (0000ms, 0730ms total)
T1F3C 001:091 JLINK_WriteReg(XPSR, 0x01000000)  returns 0x00 (0000ms, 0730ms total)
T1F3C 001:091 JLINK_WriteReg(MSP, 0x20000800)  returns 0x00 (0000ms, 0730ms total)
T1F3C 001:091 JLINK_WriteReg(PSP, 0x20000800)  returns 0x00 (0000ms, 0730ms total)
T1F3C 001:091 JLINK_WriteReg(CFBP, 0x00000000)  returns 0x00 (0000ms, 0730ms total)
T1F3C 001:091 JLINK_SetBPEx(Addr = 0x20000000, Type = 0xFFFFFFF2)  returns 0x00000008 (0000ms, 0730ms total)
T1F3C 001:091 JLINK_Go() (0003ms, 0733ms total)
T1F3C 001:094 JLINK_IsHalted()  returns FALSE (0001ms, 0734ms total)
T1F3C 001:105 JLINK_IsHalted()  returns FALSE (0001ms, 0734ms total)
T1F3C 001:108 JLINK_IsHalted()  returns FALSE (0000ms, 0733ms total)
T1F3C 001:114 JLINK_IsHalted()  returns FALSE (0000ms, 0733ms total)
T1F3C 001:116 JLINK_IsHalted()  returns FALSE (0001ms, 0734ms total)
T1F3C 001:119 JLINK_IsHalted()  returns FALSE (0001ms, 0734ms total)
T1F3C 001:121 JLINK_IsHalted()  returns FALSE (0001ms, 0734ms total)
T1F3C 001:124 JLINK_IsHalted()  returns FALSE (0000ms, 0733ms total)
T1F3C 001:126 JLINK_IsHalted() -- CPU_ReadMem(2 bytes @ 0x20000000)  returns TRUE (0004ms, 0737ms total)
T1F3C 001:130 JLINK_ReadReg(R15 (PC))  returns 0x20000000 (0000ms, 0733ms total)
T1F3C 001:130 JLINK_ClrBPEx(BPHandle = 0x00000008)  returns 0x00 (0000ms, 0733ms total)
T1F3C 001:130 JLINK_ReadReg(R0)  returns 0x00000000 (0000ms, 0733ms total)
T1F3C 001:130 JLINK_WriteMem(0x20000164, 0x0400 Bytes, ...) - Data: CC 48 84 42 08 D1 01 21 04 20 FF F7 AD FF 00 21 ... -- CPU_WriteMem(1024 bytes @ 0x20000164)  returns 0x400 (0012ms, 0745ms total)
T1F3C 001:142 JLINK_WriteReg(R0, 0x08001000)  returns 0x00 (0001ms, 0746ms total)
T1F3C 001:143 JLINK_WriteReg(R1, 0x00000400)  returns 0x00 (0000ms, 0746ms total)
T1F3C 001:143 JLINK_WriteReg(R2, 0x20000164)  returns 0x00 (0000ms, 0746ms total)
T1F3C 001:143 JLINK_WriteReg(R3, 0x00000000)  returns 0x00 (0000ms, 0746ms total)
T1F3C 001:143 JLINK_WriteReg(R4, 0x00000000)  returns 0x00 (0000ms, 0746ms total)
T1F3C 001:143 JLINK_WriteReg(R5, 0x00000000)  returns 0x00 (0000ms, 0746ms total)
T1F3C 001:143 JLINK_WriteReg(R6, 0x00000000)  returns 0x00 (0000ms, 0746ms total)
T1F3C 001:143 JLINK_WriteReg(R7, 0x00000000)  returns 0x00 (0000ms, 0746ms total)
T1F3C 001:143 JLINK_WriteReg(R8, 0x00000000)  returns 0x00 (0000ms, 0746ms total)
T1F3C 001:143 JLINK_WriteReg(R9, 0x20000160)  returns 0x00 (0000ms, 0746ms total)
T1F3C 001:143 JLINK_WriteReg(R10, 0x00000000)  returns 0x00 (0000ms, 0746ms total)
T1F3C 001:143 JLINK_WriteReg(R11, 0x00000000)  returns 0x00 (0000ms, 0746ms total)
T1F3C 001:143 JLINK_WriteReg(R12, 0x00000000)  returns 0x00 (0000ms, 0746ms total)
T1F3C 001:143 JLINK_WriteReg(R13 (SP), 0x20000800)  returns 0x00 (0000ms, 0746ms total)
T1F3C 001:143 JLINK_WriteReg(R14, 0x20000001)  returns 0x00 (0000ms, 0746ms total)
T1F3C 001:143 JLINK_WriteReg(R15 (PC), 0x200000F4)  returns 0x00 (0000ms, 0746ms total)
T1F3C 001:143 JLINK_WriteReg(XPSR, 0x01000000)  returns 0x00 (0000ms, 0746ms total)
T1F3C 001:143 JLINK_WriteReg(MSP, 0x20000800)  returns 0x00 (0000ms, 0746ms total)
T1F3C 001:143 JLINK_WriteReg(PSP, 0x20000800)  returns 0x00 (0000ms, 0746ms total)
T1F3C 001:143 JLINK_WriteReg(CFBP, 0x00000000)  returns 0x00 (0000ms, 0746ms total)
T1F3C 001:143 JLINK_SetBPEx(Addr = 0x20000000, Type = 0xFFFFFFF2)  returns 0x00000009 (0000ms, 0746ms total)
T1F3C 001:143 JLINK_Go() (0002ms, 0748ms total)
T1F3C 001:145 JLINK_IsHalted()  returns FALSE (0001ms, 0749ms total)
T1F3C 001:154 JLINK_IsHalted()  returns FALSE (0000ms, 0748ms total)
T1F3C 001:160 JLINK_IsHalted()  returns FALSE (0001ms, 0749ms total)
T1F3C 001:163 JLINK_IsHalted()  returns FALSE (0000ms, 0748ms total)
T1F3C 001:165 JLINK_IsHalted()  returns FALSE (0001ms, 0749ms total)
T1F3C 001:168 JLINK_IsHalted()  returns FALSE (0000ms, 0748ms total)
T1F3C 001:170 JLINK_IsHalted()  returns FALSE (0000ms, 0748ms total)
T1F3C 001:172 JLINK_IsHalted()  returns FALSE (0000ms, 0748ms total)
T1F3C 001:174 JLINK_IsHalted()  returns FALSE (0000ms, 0748ms total)
T1F3C 001:176 JLINK_IsHalted() -- CPU_ReadMem(2 bytes @ 0x20000000)  returns TRUE (0005ms, 0753ms total)
T1F3C 001:181 JLINK_ReadReg(R15 (PC))  returns 0x20000000 (0000ms, 0748ms total)
T1F3C 001:181 JLINK_ClrBPEx(BPHandle = 0x00000009)  returns 0x00 (0000ms, 0748ms total)
T1F3C 001:181 JLINK_ReadReg(R0)  returns 0x00000000 (0000ms, 0748ms total)
T1F3C 001:181 JLINK_WriteMem(0x20000164, 0x0400 Bytes, ...) - Data: F0 F0 87 B2 09 E0 28 68 00 EB C0 01 01 EB 00 10 ... -- CPU_WriteMem(1024 bytes @ 0x20000164)  returns 0x400 (0012ms, 0760ms total)
T1F3C 001:193 JLINK_WriteReg(R0, 0x08001400)  returns 0x00 (0000ms, 0760ms total)
T1F3C 001:193 JLINK_WriteReg(R1, 0x00000400)  returns 0x00 (0000ms, 0760ms total)
T1F3C 001:193 JLINK_WriteReg(R2, 0x20000164)  returns 0x00 (0000ms, 0760ms total)
T1F3C 001:193 JLINK_WriteReg(R3, 0x00000000)  returns 0x00 (0000ms, 0760ms total)
T1F3C 001:193 JLINK_WriteReg(R4, 0x00000000)  returns 0x00 (0000ms, 0760ms total)
T1F3C 001:193 JLINK_WriteReg(R5, 0x00000000)  returns 0x00 (0000ms, 0760ms total)
T1F3C 001:193 JLINK_WriteReg(R6, 0x00000000)  returns 0x00 (0000ms, 0760ms total)
T1F3C 001:193 JLINK_WriteReg(R7, 0x00000000)  returns 0x00 (0000ms, 0760ms total)
T1F3C 001:193 JLINK_WriteReg(R8, 0x00000000)  returns 0x00 (0000ms, 0760ms total)
T1F3C 001:193 JLINK_WriteReg(R9, 0x20000160)  returns 0x00 (0000ms, 0760ms total)
T1F3C 001:193 JLINK_WriteReg(R10, 0x00000000)  returns 0x00 (0000ms, 0760ms total)
T1F3C 001:193 JLINK_WriteReg(R11, 0x00000000)  returns 0x00 (0000ms, 0760ms total)
T1F3C 001:193 JLINK_WriteReg(R12, 0x00000000)  returns 0x00 (0000ms, 0760ms total)
T1F3C 001:193 JLINK_WriteReg(R13 (SP), 0x20000800)  returns 0x00 (0000ms, 0760ms total)
T1F3C 001:193 JLINK_WriteReg(R14, 0x20000001)  returns 0x00 (0000ms, 0760ms total)
T1F3C 001:194 JLINK_WriteReg(R15 (PC), 0x200000F4)  returns 0x00 (0000ms, 0761ms total)
T1F3C 001:194 JLINK_WriteReg(XPSR, 0x01000000)  returns 0x00 (0000ms, 0761ms total)
T1F3C 001:194 JLINK_WriteReg(MSP, 0x20000800)  returns 0x00 (0000ms, 0761ms total)
T1F3C 001:194 JLINK_WriteReg(PSP, 0x20000800)  returns 0x00 (0000ms, 0761ms total)
T1F3C 001:194 JLINK_WriteReg(CFBP, 0x00000000)  returns 0x00 (0000ms, 0761ms total)
T1F3C 001:194 JLINK_SetBPEx(Addr = 0x20000000, Type = 0xFFFFFFF2)  returns 0x0000000A (0000ms, 0761ms total)
T1F3C 001:194 JLINK_Go() (0002ms, 0763ms total)
T1F3C 001:196 JLINK_IsHalted()  returns FALSE (0000ms, 0763ms total)
T1F3C 001:201 JLINK_IsHalted()  returns FALSE (0001ms, 0764ms total)
T1F3C 001:209 JLINK_IsHalted()  returns FALSE (0001ms, 0764ms total)
T1F3C 001:212 JLINK_IsHalted()  returns FALSE (0000ms, 0763ms total)
T1F3C 001:216 JLINK_IsHalted()  returns FALSE (0000ms, 0763ms total)
T1F3C 001:218 JLINK_IsHalted()  returns FALSE (0001ms, 0764ms total)
T1F3C 001:224 JLINK_IsHalted()  returns FALSE (0001ms, 0764ms total)
T1F3C 001:226 JLINK_IsHalted() -- CPU_ReadMem(2 bytes @ 0x20000000)  returns TRUE (0005ms, 0768ms total)
T1F3C 001:231 JLINK_ReadReg(R15 (PC))  returns 0x20000000 (0000ms, 0763ms total)
T1F3C 001:231 JLINK_ClrBPEx(BPHandle = 0x0000000A)  returns 0x00 (0000ms, 0763ms total)
T1F3C 001:231 JLINK_ReadReg(R0)  returns 0x00000000 (0000ms, 0763ms total)
T1F3C 001:231 JLINK_WriteMem(0x20000164, 0x0400 Bytes, ...) - Data: 20 20 FF F7 BE FB 7C E0 DA 48 84 42 08 D1 01 21 ... -- CPU_WriteMem(1024 bytes @ 0x20000164)  returns 0x400 (0012ms, 0775ms total)
T1F3C 001:243 JLINK_WriteReg(R0, 0x08001800)  returns 0x00 (0000ms, 0775ms total)
T1F3C 001:243 JLINK_WriteReg(R1, 0x00000400)  returns 0x00 (0000ms, 0775ms total)
T1F3C 001:243 JLINK_WriteReg(R2, 0x20000164)  returns 0x00 (0000ms, 0775ms total)
T1F3C 001:243 JLINK_WriteReg(R3, 0x00000000)  returns 0x00 (0000ms, 0775ms total)
T1F3C 001:243 JLINK_WriteReg(R4, 0x00000000)  returns 0x00 (0000ms, 0775ms total)
T1F3C 001:243 JLINK_WriteReg(R5, 0x00000000)  returns 0x00 (0000ms, 0775ms total)
T1F3C 001:243 JLINK_WriteReg(R6, 0x00000000)  returns 0x00 (0000ms, 0775ms total)
T1F3C 001:243 JLINK_WriteReg(R7, 0x00000000)  returns 0x00 (0000ms, 0775ms total)
T1F3C 001:243 JLINK_WriteReg(R8, 0x00000000)  returns 0x00 (0000ms, 0775ms total)
T1F3C 001:243 JLINK_WriteReg(R9, 0x20000160)  returns 0x00 (0000ms, 0775ms total)
T1F3C 001:243 JLINK_WriteReg(R10, 0x00000000)  returns 0x00 (0000ms, 0775ms total)
T1F3C 001:243 JLINK_WriteReg(R11, 0x00000000)  returns 0x00 (0000ms, 0775ms total)
T1F3C 001:243 JLINK_WriteReg(R12, 0x00000000)  returns 0x00 (0000ms, 0775ms total)
T1F3C 001:243 JLINK_WriteReg(R13 (SP), 0x20000800)  returns 0x00 (0000ms, 0775ms total)
T1F3C 001:243 JLINK_WriteReg(R14, 0x20000001)  returns 0x00 (0000ms, 0775ms total)
T1F3C 001:243 JLINK_WriteReg(R15 (PC), 0x200000F4)  returns 0x00 (0000ms, 0775ms total)
T1F3C 001:243 JLINK_WriteReg(XPSR, 0x01000000)  returns 0x00 (0000ms, 0775ms total)
T1F3C 001:243 JLINK_WriteReg(MSP, 0x20000800)  returns 0x00 (0000ms, 0775ms total)
T1F3C 001:243 JLINK_WriteReg(PSP, 0x20000800)  returns 0x00 (0000ms, 0775ms total)
T1F3C 001:244 JLINK_WriteReg(CFBP, 0x00000000)  returns 0x00 (0000ms, 0775ms total)
T1F3C 001:244 JLINK_SetBPEx(Addr = 0x20000000, Type = 0xFFFFFFF2)  returns 0x0000000B (0000ms, 0775ms total)
T1F3C 001:244 JLINK_Go() (0002ms, 0777ms total)
T1F3C 001:246 JLINK_IsHalted()  returns FALSE (0001ms, 0778ms total)
T1F3C 001:257 JLINK_IsHalted()  returns FALSE (0000ms, 0777ms total)
T1F3C 001:259 JLINK_IsHalted()  returns FALSE (0001ms, 0778ms total)
T1F3C 001:261 JLINK_IsHalted()  returns FALSE (0001ms, 0778ms total)
T1F3C 001:263 JLINK_IsHalted()  returns FALSE (0001ms, 0778ms total)
T1F3C 001:271 JLINK_IsHalted()  returns FALSE (0001ms, 0778ms total)
T1F3C 001:275 JLINK_IsHalted()  returns FALSE (0001ms, 0778ms total)
T1F3C 001:278 JLINK_IsHalted() -- CPU_ReadMem(2 bytes @ 0x20000000)  returns TRUE (0004ms, 0781ms total)
T1F3C 001:282 JLINK_ReadReg(R15 (PC))  returns 0x20000000 (0000ms, 0777ms total)
T1F3C 001:282 JLINK_ClrBPEx(BPHandle = 0x0000000B)  returns 0x00 (0000ms, 0777ms total)
T1F3C 001:282 JLINK_ReadReg(R0)  returns 0x00000000 (0000ms, 0777ms total)
T1F3C 001:282 JLINK_WriteMem(0x20000164, 0x0400 Bytes, ...) - Data: 70 47 F0 B5 0C 46 15 46 00 22 00 21 00 26 07 8C ... -- CPU_WriteMem(1024 bytes @ 0x20000164)  returns 0x400 (0013ms, 0790ms total)
T1F3C 001:295 JLINK_WriteReg(R0, 0x08001C00)  returns 0x00 (0000ms, 0790ms total)
T1F3C 001:295 JLINK_WriteReg(R1, 0x00000400)  returns 0x00 (0000ms, 0790ms total)
T1F3C 001:295 JLINK_WriteReg(R2, 0x20000164)  returns 0x00 (0000ms, 0790ms total)
T1F3C 001:295 JLINK_WriteReg(R3, 0x00000000)  returns 0x00 (0000ms, 0790ms total)
T1F3C 001:295 JLINK_WriteReg(R4, 0x00000000)  returns 0x00 (0000ms, 0790ms total)
T1F3C 001:295 JLINK_WriteReg(R5, 0x00000000)  returns 0x00 (0000ms, 0790ms total)
T1F3C 001:295 JLINK_WriteReg(R6, 0x00000000)  returns 0x00 (0000ms, 0790ms total)
T1F3C 001:295 JLINK_WriteReg(R7, 0x00000000)  returns 0x00 (0000ms, 0790ms total)
T1F3C 001:295 JLINK_WriteReg(R8, 0x00000000)  returns 0x00 (0000ms, 0790ms total)
T1F3C 001:295 JLINK_WriteReg(R9, 0x20000160)  returns 0x00 (0000ms, 0790ms total)
T1F3C 001:295 JLINK_WriteReg(R10, 0x00000000)  returns 0x00 (0000ms, 0790ms total)
T1F3C 001:295 JLINK_WriteReg(R11, 0x00000000)  returns 0x00 (0000ms, 0790ms total)
T1F3C 001:295 JLINK_WriteReg(R12, 0x00000000)  returns 0x00 (0000ms, 0790ms total)
T1F3C 001:295 JLINK_WriteReg(R13 (SP), 0x20000800)  returns 0x00 (0000ms, 0790ms total)
T1F3C 001:295 JLINK_WriteReg(R14, 0x20000001)  returns 0x00 (0000ms, 0790ms total)
T1F3C 001:295 JLINK_WriteReg(R15 (PC), 0x200000F4)  returns 0x00 (0000ms, 0790ms total)
T1F3C 001:295 JLINK_WriteReg(XPSR, 0x01000000)  returns 0x00 (0000ms, 0790ms total)
T1F3C 001:295 JLINK_WriteReg(MSP, 0x20000800)  returns 0x00 (0000ms, 0790ms total)
T1F3C 001:295 JLINK_WriteReg(PSP, 0x20000800)  returns 0x00 (0000ms, 0790ms total)
T1F3C 001:295 JLINK_WriteReg(CFBP, 0x00000000)  returns 0x00 (0000ms, 0790ms total)
T1F3C 001:295 JLINK_SetBPEx(Addr = 0x20000000, Type = 0xFFFFFFF2)  returns 0x0000000C (0000ms, 0790ms total)
T1F3C 001:295 JLINK_Go() (0003ms, 0793ms total)
T1F3C 001:298 JLINK_IsHalted()  returns FALSE (0000ms, 0793ms total)
T1F3C 001:304 JLINK_IsHalted()  returns FALSE (0000ms, 0793ms total)
T1F3C 001:306 JLINK_IsHalted()  returns FALSE (0000ms, 0793ms total)
T1F3C 001:308 JLINK_IsHalted()  returns FALSE (0000ms, 0793ms total)
T1F3C 001:310 JLINK_IsHalted()  returns FALSE (0000ms, 0793ms total)
T1F3C 001:321 JLINK_IsHalted()  returns FALSE (0000ms, 0793ms total)
T1F3C 001:323 JLINK_IsHalted()  returns FALSE (0000ms, 0793ms total)
T1F3C 001:325 JLINK_IsHalted()  returns FALSE (0000ms, 0793ms total)
T1F3C 001:327 JLINK_IsHalted()  returns FALSE (0000ms, 0793ms total)
T1F3C 001:331 JLINK_IsHalted() -- CPU_ReadMem(2 bytes @ 0x20000000)  returns TRUE (0004ms, 0797ms total)
T1F3C 001:335 JLINK_ReadReg(R15 (PC))  returns 0x20000000 (0000ms, 0793ms total)
T1F3C 001:335 JLINK_ClrBPEx(BPHandle = 0x0000000C)  returns 0x00 (0000ms, 0793ms total)
T1F3C 001:335 JLINK_ReadReg(R0)  returns 0x00000000 (0000ms, 0793ms total)
T1F3C 001:335 JLINK_WriteMem(0x20000164, 0x0400 Bytes, ...) - Data: 83 81 70 47 81 82 70 47 41 EA 02 03 A0 F8 48 30 ... -- CPU_WriteMem(1024 bytes @ 0x20000164)  returns 0x400 (0013ms, 0806ms total)
T1F3C 001:348 JLINK_WriteReg(R0, 0x08002000)  returns 0x00 (0000ms, 0806ms total)
T1F3C 001:348 JLINK_WriteReg(R1, 0x00000400)  returns 0x00 (0000ms, 0806ms total)
T1F3C 001:348 JLINK_WriteReg(R2, 0x20000164)  returns 0x00 (0000ms, 0806ms total)
T1F3C 001:348 JLINK_WriteReg(R3, 0x00000000)  returns 0x00 (0000ms, 0806ms total)
T1F3C 001:348 JLINK_WriteReg(R4, 0x00000000)  returns 0x00 (0000ms, 0806ms total)
T1F3C 001:348 JLINK_WriteReg(R5, 0x00000000)  returns 0x00 (0000ms, 0806ms total)
T1F3C 001:348 JLINK_WriteReg(R6, 0x00000000)  returns 0x00 (0000ms, 0806ms total)
T1F3C 001:348 JLINK_WriteReg(R7, 0x00000000)  returns 0x00 (0000ms, 0806ms total)
T1F3C 001:348 JLINK_WriteReg(R8, 0x00000000)  returns 0x00 (0000ms, 0806ms total)
T1F3C 001:348 JLINK_WriteReg(R9, 0x20000160)  returns 0x00 (0000ms, 0806ms total)
T1F3C 001:348 JLINK_WriteReg(R10, 0x00000000)  returns 0x00 (0000ms, 0806ms total)
T1F3C 001:348 JLINK_WriteReg(R11, 0x00000000)  returns 0x00 (0000ms, 0806ms total)
T1F3C 001:348 JLINK_WriteReg(R12, 0x00000000)  returns 0x00 (0000ms, 0806ms total)
T1F3C 001:348 JLINK_WriteReg(R13 (SP), 0x20000800)  returns 0x00 (0000ms, 0806ms total)
T1F3C 001:348 JLINK_WriteReg(R14, 0x20000001)  returns 0x00 (0000ms, 0806ms total)
T1F3C 001:348 JLINK_WriteReg(R15 (PC), 0x200000F4)  returns 0x00 (0000ms, 0806ms total)
T1F3C 001:348 JLINK_WriteReg(XPSR, 0x01000000)  returns 0x00 (0000ms, 0806ms total)
T1F3C 001:348 JLINK_WriteReg(MSP, 0x20000800)  returns 0x00 (0000ms, 0806ms total)
T1F3C 001:348 JLINK_WriteReg(PSP, 0x20000800)  returns 0x00 (0000ms, 0806ms total)
T1F3C 001:348 JLINK_WriteReg(CFBP, 0x00000000)  returns 0x00 (0000ms, 0806ms total)
T1F3C 001:348 JLINK_SetBPEx(Addr = 0x20000000, Type = 0xFFFFFFF2)  returns 0x0000000D (0000ms, 0806ms total)
T1F3C 001:348 JLINK_Go() (0002ms, 0808ms total)
T1F3C 001:350 JLINK_IsHalted()  returns FALSE (0001ms, 0809ms total)
T1F3C 001:360 JLINK_IsHalted()  returns FALSE (0000ms, 0808ms total)
T1F3C 001:364 JLINK_IsHalted()  returns FALSE (0000ms, 0808ms total)
T1F3C 001:366 JLINK_IsHalted()  returns FALSE (0000ms, 0808ms total)
T1F3C 001:368 JLINK_IsHalted()  returns FALSE (0000ms, 0808ms total)
T1F3C 001:370 JLINK_IsHalted()  returns FALSE (0000ms, 0808ms total)
T1F3C 001:372 JLINK_IsHalted()  returns FALSE (0000ms, 0808ms total)
T1F3C 001:374 JLINK_IsHalted()  returns FALSE (0000ms, 0808ms total)
T1F3C 001:383 JLINK_IsHalted() -- CPU_ReadMem(2 bytes @ 0x20000000)  returns TRUE (0005ms, 0813ms total)
T1F3C 001:388 JLINK_ReadReg(R15 (PC))  returns 0x20000000 (0000ms, 0808ms total)
T1F3C 001:388 JLINK_ClrBPEx(BPHandle = 0x0000000D)  returns 0x00 (0000ms, 0808ms total)
T1F3C 001:388 JLINK_ReadReg(R0)  returns 0x00000000 (0000ms, 0808ms total)
T1F3C 001:388 JLINK_WriteMem(0x20000164, 0x0400 Bytes, ...) - Data: 30 BD 70 B5 03 46 00 20 00 24 18 46 18 30 01 25 ... -- CPU_WriteMem(1024 bytes @ 0x20000164)  returns 0x400 (0013ms, 0821ms total)
T1F3C 001:401 JLINK_WriteReg(R0, 0x08002400)  returns 0x00 (0000ms, 0821ms total)
T1F3C 001:401 JLINK_WriteReg(R1, 0x00000400)  returns 0x00 (0000ms, 0821ms total)
T1F3C 001:401 JLINK_WriteReg(R2, 0x20000164)  returns 0x00 (0000ms, 0821ms total)
T1F3C 001:401 JLINK_WriteReg(R3, 0x00000000)  returns 0x00 (0000ms, 0821ms total)
T1F3C 001:401 JLINK_WriteReg(R4, 0x00000000)  returns 0x00 (0000ms, 0821ms total)
T1F3C 001:401 JLINK_WriteReg(R5, 0x00000000)  returns 0x00 (0000ms, 0821ms total)
T1F3C 001:401 JLINK_WriteReg(R6, 0x00000000)  returns 0x00 (0000ms, 0821ms total)
T1F3C 001:401 JLINK_WriteReg(R7, 0x00000000)  returns 0x00 (0000ms, 0821ms total)
T1F3C 001:401 JLINK_WriteReg(R8, 0x00000000)  returns 0x00 (0000ms, 0821ms total)
T1F3C 001:401 JLINK_WriteReg(R9, 0x20000160)  returns 0x00 (0000ms, 0821ms total)
T1F3C 001:401 JLINK_WriteReg(R10, 0x00000000)  returns 0x00 (0000ms, 0821ms total)
T1F3C 001:401 JLINK_WriteReg(R11, 0x00000000)  returns 0x00 (0000ms, 0821ms total)
T1F3C 001:401 JLINK_WriteReg(R12, 0x00000000)  returns 0x00 (0000ms, 0821ms total)
T1F3C 001:401 JLINK_WriteReg(R13 (SP), 0x20000800)  returns 0x00 (0000ms, 0821ms total)
T1F3C 001:401 JLINK_WriteReg(R14, 0x20000001)  returns 0x00 (0000ms, 0821ms total)
T1F3C 001:401 JLINK_WriteReg(R15 (PC), 0x200000F4)  returns 0x00 (0000ms, 0821ms total)
T1F3C 001:401 JLINK_WriteReg(XPSR, 0x01000000)  returns 0x00 (0000ms, 0821ms total)
T1F3C 001:401 JLINK_WriteReg(MSP, 0x20000800)  returns 0x00 (0000ms, 0821ms total)
T1F3C 001:401 JLINK_WriteReg(PSP, 0x20000800)  returns 0x00 (0000ms, 0821ms total)
T1F3C 001:401 JLINK_WriteReg(CFBP, 0x00000000)  returns 0x00 (0000ms, 0821ms total)
T1F3C 001:401 JLINK_SetBPEx(Addr = 0x20000000, Type = 0xFFFFFFF2)  returns 0x0000000E (0000ms, 0821ms total)
T1F3C 001:401 JLINK_Go() (0003ms, 0824ms total)
T1F3C 001:404 JLINK_IsHalted()  returns FALSE (0001ms, 0825ms total)
T1F3C 001:410 JLINK_IsHalted()  returns FALSE (0001ms, 0825ms total)
T1F3C 001:413 JLINK_IsHalted()  returns FALSE (0000ms, 0824ms total)
T1F3C 001:415 JLINK_IsHalted()  returns FALSE (0000ms, 0824ms total)
T1F3C 001:417 JLINK_IsHalted()  returns FALSE (0000ms, 0824ms total)
T1F3C 001:419 JLINK_IsHalted()  returns FALSE (0000ms, 0824ms total)
T1F3C 001:421 JLINK_IsHalted()  returns FALSE (0000ms, 0824ms total)
T1F3C 001:423 JLINK_IsHalted()  returns FALSE (0000ms, 0824ms total)
T1F3C 001:431 JLINK_IsHalted()  returns FALSE (0001ms, 0825ms total)
T1F3C 001:434 JLINK_IsHalted()  returns FALSE (0001ms, 0825ms total)
T1F3C 001:440 JLINK_IsHalted() -- CPU_ReadMem(2 bytes @ 0x20000000)  returns TRUE (0004ms, 0828ms total)
T1F3C 001:444 JLINK_ReadReg(R15 (PC))  returns 0x20000000 (0000ms, 0824ms total)
T1F3C 001:444 JLINK_ClrBPEx(BPHandle = 0x0000000E)  returns 0x00 (0000ms, 0824ms total)
T1F3C 001:444 JLINK_ReadReg(R0)  returns 0x00000000 (0000ms, 0824ms total)
T1F3C 001:444 JLINK_WriteMem(0x20000164, 0x0400 Bytes, ...) - Data: 70 47 81 89 41 F0 01 01 81 81 70 47 02 8B D2 B2 ... -- CPU_WriteMem(1024 bytes @ 0x20000164)  returns 0x400 (0013ms, 0837ms total)
T1F3C 001:457 JLINK_WriteReg(R0, 0x08002800)  returns 0x00 (0000ms, 0837ms total)
T1F3C 001:457 JLINK_WriteReg(R1, 0x00000400)  returns 0x00 (0000ms, 0837ms total)
T1F3C 001:457 JLINK_WriteReg(R2, 0x20000164)  returns 0x00 (0000ms, 0837ms total)
T1F3C 001:457 JLINK_WriteReg(R3, 0x00000000)  returns 0x00 (0000ms, 0837ms total)
T1F3C 001:457 JLINK_WriteReg(R4, 0x00000000)  returns 0x00 (0000ms, 0837ms total)
T1F3C 001:457 JLINK_WriteReg(R5, 0x00000000)  returns 0x00 (0000ms, 0837ms total)
T1F3C 001:457 JLINK_WriteReg(R6, 0x00000000)  returns 0x00 (0000ms, 0837ms total)
T1F3C 001:457 JLINK_WriteReg(R7, 0x00000000)  returns 0x00 (0000ms, 0837ms total)
T1F3C 001:457 JLINK_WriteReg(R8, 0x00000000)  returns 0x00 (0000ms, 0837ms total)
T1F3C 001:457 JLINK_WriteReg(R9, 0x20000160)  returns 0x00 (0000ms, 0837ms total)
T1F3C 001:457 JLINK_WriteReg(R10, 0x00000000)  returns 0x00 (0000ms, 0837ms total)
T1F3C 001:457 JLINK_WriteReg(R11, 0x00000000)  returns 0x00 (0000ms, 0837ms total)
T1F3C 001:457 JLINK_WriteReg(R12, 0x00000000)  returns 0x00 (0000ms, 0837ms total)
T1F3C 001:457 JLINK_WriteReg(R13 (SP), 0x20000800)  returns 0x00 (0000ms, 0837ms total)
T1F3C 001:457 JLINK_WriteReg(R14, 0x20000001)  returns 0x00 (0000ms, 0837ms total)
T1F3C 001:457 JLINK_WriteReg(R15 (PC), 0x200000F4)  returns 0x00 (0000ms, 0837ms total)
T1F3C 001:457 JLINK_WriteReg(XPSR, 0x01000000)  returns 0x00 (0000ms, 0837ms total)
T1F3C 001:457 JLINK_WriteReg(MSP, 0x20000800)  returns 0x00 (0000ms, 0837ms total)
T1F3C 001:457 JLINK_WriteReg(PSP, 0x20000800)  returns 0x00 (0000ms, 0837ms total)
T1F3C 001:457 JLINK_WriteReg(CFBP, 0x00000000)  returns 0x00 (0000ms, 0837ms total)
T1F3C 001:457 JLINK_SetBPEx(Addr = 0x20000000, Type = 0xFFFFFFF2)  returns 0x0000000F (0000ms, 0837ms total)
T1F3C 001:457 JLINK_Go() (0004ms, 0841ms total)
T1F3C 001:461 JLINK_IsHalted()  returns FALSE (0001ms, 0842ms total)
T1F3C 001:471 JLINK_IsHalted()  returns FALSE (0000ms, 0841ms total)
T1F3C 001:475 JLINK_IsHalted()  returns FALSE (0000ms, 0841ms total)
T1F3C 001:477 JLINK_IsHalted()  returns FALSE (0001ms, 0842ms total)
T1F3C 001:480 JLINK_IsHalted()  returns FALSE (0001ms, 0842ms total)
T1F3C 001:483 JLINK_IsHalted()  returns FALSE (0001ms, 0842ms total)
T1F3C 001:501 JLINK_IsHalted() -- CPU_ReadMem(2 bytes @ 0x20000000)  returns TRUE (0005ms, 0846ms total)
T1F3C 001:506 JLINK_ReadReg(R15 (PC))  returns 0x20000000 (0000ms, 0841ms total)
T1F3C 001:506 JLINK_ClrBPEx(BPHandle = 0x0000000F)  returns 0x00 (0000ms, 0841ms total)
T1F3C 001:506 JLINK_ReadReg(R0)  returns 0x00000000 (0000ms, 0841ms total)
T1F3C 001:506 JLINK_WriteMem(0x20000164, 0x0400 Bytes, ...) - Data: 22 F4 80 52 42 60 70 47 0A 46 00 21 81 68 21 F4 ... -- CPU_WriteMem(1024 bytes @ 0x20000164)  returns 0x400 (0013ms, 0854ms total)
